--- Beginning Pretty Register Dump ---
Device 0x4A - Registers 0x0 to 0x78:
  Register 0x00: 0x00
  Register 0x01: 0x00
  Register 0x02: 0x00
  Register 0x03: 0x00
  Register 0x04: 0x00
  Register 0x05: 0x86
  Register 0x06: 0x41
  Register 0x07: 0x41
  Register 0x08: 0x42
  Register 0x09: 0x42
  Register 0x0A: 0x00
  Register 0x0B: 0x44
  Register 0x0C: 0x00
  Register 0x0D: 0x00
  Register 0x0E: 0x00
  Register 0x0F: 0x00
  Register 0x10: 0x01
  Register 0x11: 0x20
  Register 0x12: 0x00
  Register 0x13: 0x00
  Register 0x14: 0x00
  Register 0x15: 0x00
  Register 0x16: 0x00
  Register 0x17: 0x00
  Register 0x18: 0x00
  Register 0x19: 0x00
  Register 0x1A: 0x00
  Register 0x1B: 0x00
  Register 0x1C: 0x00
  Register 0x1D: 0x00
  Register 0x1E: 0x00
  Register 0x1F: 0x00
  Register 0x20: 0x97
  Register 0x21: 0x00
  Register 0x22: 0x01
  Register 0x23: 0x03
  Register 0x24: 0x50
  Register 0x25: 0x07
  Register 0x26: 0x01
  Register 0x27: 0x3F
  Register 0x28: 0x11
  Register 0x29: 0x03
  Register 0x2A: 0x01
  Register 0x2B: 0x08
  Register 0x2C: 0x00
  Register 0x2D: 0x00
  Register 0x2E: 0x00
  Register 0x2F: 0x00
  Register 0x30: 0x00
  Register 0x31: 0x00
  Register 0x32: 0x00
  Register 0x33: 0x01
  Register 0x34: 0x00
  Register 0x35: 0x00
  Register 0x36: 0x01
  Register 0x37: 0x00
  Register 0x38: 0x00
  Register 0x39: 0x00
  Register 0x3A: 0x00
  Register 0x3B: 0x00
  Register 0x3C: 0x00
  Register 0x3D: 0x00
  Register 0x3E: 0x00
  Register 0x3F: 0x00
  Register 0x40: 0x80
  Register 0x41: 0x7F
  Register 0x42: 0x00
  Register 0x43: 0x80
  Register 0x44: 0x7F
  Register 0x45: 0x00
  Register 0x46: 0x80
  Register 0x47: 0x7F
  Register 0x48: 0x00
  Register 0x49: 0x80
  Register 0x4A: 0x7F
  Register 0x4B: 0x00
  Register 0x4C: 0x80
  Register 0x4D: 0x7F
  Register 0x4E: 0x00
  Register 0x4F: 0x80
  Register 0x50: 0x7F
  Register 0x51: 0x00
  Register 0x52: 0x80
  Register 0x53: 0x7F
  Register 0x54: 0x00
  Register 0x55: 0x80
  Register 0x56: 0x7F
  Register 0x57: 0x00
  Register 0x58: 0x00
  Register 0x59: 0x00
  Register 0x5A: 0x00
  Register 0x5B: 0x00
  Register 0x5C: 0x00
  Register 0x5D: 0x00
  Register 0x5E: 0x00
  Register 0x5F: 0x00
  Register 0x60: 0x01
  Register 0x61: 0x00
  Register 0x62: 0x10
  Register 0x63: 0x00
  Register 0x64: 0x00
  Register 0x65: 0x00
  Register 0x66: 0x00
  Register 0x67: 0x00
  Register 0x68: 0x00
  Register 0x69: 0x00
  Register 0x6A: 0x00
  Register 0x6B: 0x00
  Register 0x6C: 0x00
  Register 0x6D: 0x00
  Register 0x6E: 0x00
  Register 0x6F: 0x00
  Register 0x70: 0x70
  Register 0x71: 0x10
  Register 0x72: 0x0F
  Register 0x73: 0x05
  Register 0x74: 0x31
  Register 0x75: 0x00
  Register 0x76: 0x11
  Register 0x77: 0xC4
  Register 0x78: 0x07

Device 0x4 - Registers 0x0 to 0x1F:
  Register 0x00: 0x05
  Register 0x01: 0x2E
  Register 0x02: 0xA4
  Register 0x03: 0xF8
  Register 0x04: 0x0F
  Register 0x05: 0x00
  Register 0x06: 0x04
  Register 0x07: 0x01
  Register 0x08: 0x06
  Register 0x09: 0xF8
  Register 0x0A: 0x0F
  Register 0x0B: 0x00
  Register 0x0C: 0x00
  Register 0x0D: 0x00
  Register 0x0E: 0x00
  Register 0x0F: 0x00
  Register 0x10: 0x00
  Register 0x11: 0x00
  Register 0x12: 0x00
  Register 0x13: 0x00
  Register 0x14: 0x00
  Register 0x15: 0x00
  Register 0x16: 0x00
  Register 0x17: 0x00
  Register 0x18: 0x00
  Register 0x19: 0x00
  Register 0x1A: 0x00
  Register 0x1B: 0x00
  Register 0x1C: 0x20
  Register 0x1D: 0xAA
  Register 0x1E: 0xAA
  Register 0x1F: 0xAA


--- End of Pretty Register Dump ---